T9CEC 000:003.649   SEGGER J-Link V7.98c Log File
T9CEC 000:003.738   DLL Compiled: Aug  7 2024 15:37:06
T9CEC 000:003.742   Logging started @ 2026-03-05 02:37
T9CEC 000:003.746   Process: C:\Users\senki\AppData\Local\Keil_v5\UV4\UV4.exe
T9CEC 000:003.752 - 3.749ms
T9CEC 000:003.762 JLINK_SetWarnOutHandler(...)
T9CEC 000:003.765 - 0.005ms
T9CEC 000:003.775 JLINK_OpenEx(...)
T9CEC 000:008.527   Firmware: J-Link Pro V4 compiled Sep 22 2029 15:00:37
T9CEC 000:009.620   Firmware: J-Link Pro V4 compiled Sep 22 2029 15:00:37
T9CEC 000:009.854   Decompressing FW timestamp took 146 us
T9CEC 000:012.285   Hardware: V12.00
T9CEC 000:012.334   S/N: 601012478
T9CEC 000:012.354   OEM: SEGGER
T9CEC 000:012.374   Feature(s): RDI, FlashBP, FlashDL, JFlash, GDB
T9CEC 000:013.215   Bootloader: (Could not read)
T9CEC 000:014.228   USB speed mode: High speed (480 MBit/s)
T9CEC 000:014.239   Active J-Link Eco level: 3 (https://wiki.segger.com/J-Link_Eco)
T9CEC 000:014.557   TELNET listener socket opened on port 19021
T9CEC 000:014.636   WEBSRV WEBSRV_Init(): Starting webserver thread(s)
T9CEC 000:014.688   WEBSRV Failed to put socket into listener state (port 19080)
T9CEC 000:014.803   WEBSRV Webserver running on local port 19081
T9CEC 000:014.915   Looking for J-Link GUI Server exe at: C:\Users\senki\AppData\Local\Keil_v5\ARM\Segger\JLinkGUIServer.exe
T9CEC 000:014.992   Looking for J-Link GUI Server exe at: C:\Program Files\SEGGER\JLink_V918\JLinkGUIServer.exe
T9CEC 000:015.015   Forking J-Link GUI Server: C:\Program Files\SEGGER\JLink_V918\JLinkGUIServer.exe
T9CEC 000:017.423   J-Link GUI Server info: "J-Link GUI server V9.18 "
T9CEC 000:017.644 - 13.864ms returns "O.K."
T9CEC 000:017.683 JLINK_GetEmuCaps()
T9CEC 000:017.691 - 0.006ms returns 0xB9FF7BBF
T9CEC 000:017.699 JLINK_TIF_GetAvailable(...)
T9CEC 000:025.692 - 7.993ms
T9CEC 000:025.757 JLINK_SetErrorOutHandler(...)
T9CEC 000:025.763 - 0.005ms
T9CEC 000:025.797 JLINK_ExecCommand("ProjectFile = "D:\Space\Work\ethok\STM32F4-FreeRTOS-LwIP-master\STM32F4-FreeRTOS-LwIP-master\USER\JLinkSettings.ini"", ...). 
T9CEC 000:035.963 - 10.167ms returns 0x00
T9CEC 000:038.254 JLINK_ExecCommand("Device = STM32F407ZG", ...). 
T9CEC 000:042.041   Device "STM32F407ZG" selected.
T9CEC 000:042.318 - 4.048ms returns 0x00
T9CEC 000:042.341 JLINK_ExecCommand("DisableConnectionTimeout", ...). 
T9CEC 000:042.348   ERROR: Unknown command
T9CEC 000:042.353 - 0.006ms returns 0x01
T9CEC 000:042.358 JLINK_GetHardwareVersion()
T9CEC 000:042.364 - 0.004ms returns 120000
T9CEC 000:042.368 JLINK_GetDLLVersion()
T9CEC 000:042.372 - 0.003ms returns 79803
T9CEC 000:042.376 JLINK_GetOEMString(...)
T9CEC 000:042.381 JLINK_GetFirmwareString(...)
T9CEC 000:042.385 - 0.004ms
T9CEC 000:047.971 JLINK_GetDLLVersion()
T9CEC 000:047.985 - 0.014ms returns 79803
T9CEC 000:047.991 JLINK_GetCompileDateTime()
T9CEC 000:047.994 - 0.003ms
T9CEC 000:049.515 JLINK_GetFirmwareString(...)
T9CEC 000:049.526 - 0.010ms
T9CEC 000:051.190 JLINK_GetHardwareVersion()
T9CEC 000:051.204 - 0.014ms returns 120000
T9CEC 000:052.885 JLINK_GetSN()
T9CEC 000:052.896 - 0.010ms returns 601012478
T9CEC 000:055.084 JLINK_GetOEMString(...)
T9CEC 000:060.185 JLINK_TIF_Select(JLINKARM_TIF_SWD)
T9CEC 000:064.926 - 4.739ms returns 0x00
T9CEC 000:065.076 JLINK_HasError()
T9CEC 000:065.107 JLINK_SetSpeed(10000)
T9CEC 000:065.279 - 0.174ms
T9CEC 000:065.329 JLINK_GetId()
T9CEC 000:067.164   InitTarget() start
T9CEC 000:067.186    J-Link Script File: Executing InitTarget()
T9CEC 000:069.257   SWD selected. Executing JTAG -> SWD switching sequence.
T9CEC 000:073.660   DAP initialized successfully.
T9CEC 000:080.529   InitTarget() end - Took 11.5ms
T9CEC 000:082.779   Found SW-DP with ID 0x2BA01477
T9CEC 000:086.505   DPIDR: 0x2BA01477
T9CEC 000:090.234   CoreSight SoC-400 or earlier
T9CEC 000:091.804   Scanning AP map to find all available APs
T9CEC 000:094.137   AP[1]: Stopped AP scan as end of AP map has been reached
T9CEC 000:096.217   AP[0]: AHB-AP (IDR: 0x24770011)
T9CEC 000:097.842   Iterating through AP map to find AHB-AP to use
T9CEC 000:100.362   AP[0]: Core found
T9CEC 000:101.985   AP[0]: AHB-AP ROM base: 0xE00FF000
T9CEC 000:108.463   CPUID register: 0x410FC241. Implementer code: 0x41 (ARM)
T9CEC 000:111.289   Found Cortex-M4 r0p1, Little endian.
T9CEC 000:111.793   -- Max. mem block: 0x00002A88
T9CEC 000:112.574   CPU_ReadMem(4 bytes @ 0xE000EDF0)
T9CEC 000:112.931   CPU_ReadMem(4 bytes @ 0xE0002000)
T9CEC 000:114.919   FPUnit: 6 code (BP) slots and 2 literal slots
T9CEC 000:114.936   CPU_ReadMem(4 bytes @ 0xE000EDFC)
T9CEC 000:115.239   CPU_ReadMem(4 bytes @ 0xE0001000)
T9CEC 000:115.530   CPU_WriteMem(4 bytes @ 0xE0001000)
T9CEC 000:115.895   CPU_ReadMem(4 bytes @ 0xE000ED88)
T9CEC 000:116.187   CPU_WriteMem(4 bytes @ 0xE000ED88)
T9CEC 000:116.694   CPU_ReadMem(4 bytes @ 0xE000ED88)
T9CEC 000:117.030   CPU_WriteMem(4 bytes @ 0xE000ED88)
T9CEC 000:120.233   CoreSight components:
T9CEC 000:121.823   ROMTbl[0] @ E00FF000
T9CEC 000:121.838   CPU_ReadMem(64 bytes @ 0xE00FF000)
T9CEC 000:122.385   CPU_ReadMem(32 bytes @ 0xE000EFE0)
T9CEC 000:125.523   [0][0]: E000E000 CID B105E00D PID 000BB00C SCS-M7
T9CEC 000:125.540   CPU_ReadMem(32 bytes @ 0xE0001FE0)
T9CEC 000:128.137   [0][1]: E0001000 CID B105E00D PID 003BB002 DWT
T9CEC 000:128.154   CPU_ReadMem(32 bytes @ 0xE0002FE0)
T9CEC 000:130.207   [0][2]: E0002000 CID B105E00D PID 002BB003 FPB
T9CEC 000:130.223   CPU_ReadMem(32 bytes @ 0xE0000FE0)
T9CEC 000:132.448   [0][3]: E0000000 CID B105E00D PID 003BB001 ITM
T9CEC 000:132.465   CPU_ReadMem(32 bytes @ 0xE0040FE0)
T9CEC 000:135.889   [0][4]: E0040000 CID B105900D PID 000BB9A1 TPIU
T9CEC 000:135.906   CPU_ReadMem(32 bytes @ 0xE0041FE0)
T9CEC 000:138.483   [0][5]: E0041000 CID 00000000 PID 00000000 ???
T9CEC 000:138.815 - 73.483ms returns 0x2BA01477
T9CEC 000:138.922 JLINK_GetDLLVersion()
T9CEC 000:138.927 - 0.004ms returns 79803
T9CEC 000:138.942 JLINK_CORE_GetFound()
T9CEC 000:138.946 - 0.003ms returns 0xE0000FF
T9CEC 000:138.951 JLINK_GetDebugInfo(0x100 = JLINKARM_ROM_TABLE_ADDR_INDEX)
T9CEC 000:138.955   Value=0xE00FF000
T9CEC 000:138.960 - 0.010ms returns 0
T9CEC 000:140.605 JLINK_GetDebugInfo(0x100 = JLINKARM_ROM_TABLE_ADDR_INDEX)
T9CEC 000:140.616   Value=0xE00FF000
T9CEC 000:140.621 - 0.017ms returns 0
T9CEC 000:140.626 JLINK_GetDebugInfo(0x101 = JLINKARM_DEBUG_INFO_ETM_ADDR_INDEX)
T9CEC 000:140.630   Value=0x00000000
T9CEC 000:140.635 - 0.008ms returns 0
T9CEC 000:140.640 JLINK_ReadMemEx(0xE0041FF0, 0x10 Bytes, Flags = 0x02000004)
T9CEC 000:140.671   CPU_ReadMem(16 bytes @ 0xE0041FF0)
T9CEC 000:147.315   Data:  00 00 00 00 00 00 00 00 00 00 00 00 00 00 00 00
T9CEC 000:147.358 - 6.717ms returns 16 (0x10)
T9CEC 000:147.462 JLINK_GetDebugInfo(0x102 = JLINKARM_DEBUG_INFO_MTB_ADDR_INDEX)
T9CEC 000:147.474   Value=0x00000000
T9CEC 000:147.490 - 0.029ms returns 0
T9CEC 000:147.503 JLINK_GetDebugInfo(0x103 = JLINKARM_DEBUG_INFO_TPIU_ADDR_INDEX)
T9CEC 000:147.513   Value=0xE0040000
T9CEC 000:147.528 - 0.025ms returns 0
T9CEC 000:147.540 JLINK_GetDebugInfo(0x104 = JLINKARM_DEBUG_INFO_ITM_ADDR_INDEX)
T9CEC 000:147.551   Value=0xE0000000
T9CEC 000:147.571 - 0.030ms returns 0
T9CEC 000:147.586 JLINK_GetDebugInfo(0x105 = JLINKARM_DEBUG_INFO_DWT_ADDR_INDEX)
T9CEC 000:147.599   Value=0xE0001000
T9CEC 000:147.617 - 0.031ms returns 0
T9CEC 000:147.632 JLINK_GetDebugInfo(0x106 = JLINKARM_DEBUG_INFO_FPB_ADDR_INDEX)
T9CEC 000:147.646   Value=0xE0002000
T9CEC 000:147.665 - 0.032ms returns 0
T9CEC 000:147.681 JLINK_GetDebugInfo(0x107 = JLINKARM_DEBUG_INFO_NVIC_ADDR_INDEX)
T9CEC 000:147.695   Value=0xE000E000
T9CEC 000:147.709 - 0.028ms returns 0
T9CEC 000:147.722 JLINK_GetDebugInfo(0x10C = JLINKARM_DEBUG_INFO_DBG_ADDR_INDEX)
T9CEC 000:147.732   Value=0xE000EDF0
T9CEC 000:147.746 - 0.024ms returns 0
T9CEC 000:147.758 JLINK_GetDebugInfo(0x01 = Unknown)
T9CEC 000:147.768   Value=0x00000001
T9CEC 000:147.783 - 0.025ms returns 0
T9CEC 000:147.795 JLINK_ReadMemU32(0xE000ED00, 0x1 Items)
T9CEC 000:147.817   CPU_ReadMem(4 bytes @ 0xE000ED00)
T9CEC 000:148.189   Data:  41 C2 0F 41
T9CEC 000:148.201   Debug reg: CPUID
T9CEC 000:148.206 - 0.411ms returns 1 (0x1)
T9CEC 000:148.224 JLINK_GetDebugInfo(0x10F = JLINKARM_DEBUG_INFO_HAS_CORTEX_M_SECURITY_EXT_INDEX)
T9CEC 000:148.228   Value=0x00000000
T9CEC 000:148.233 - 0.008ms returns 0
T9CEC 000:148.238 JLINK_HasError()
T9CEC 000:148.243 JLINK_SetResetType(JLINKARM_CM3_RESET_TYPE_NORMAL)
T9CEC 000:148.247 - 0.004ms returns JLINKARM_CM3_RESET_TYPE_NORMAL
T9CEC 000:148.251 JLINK_Reset()
T9CEC 000:148.718   CPU is running
T9CEC 000:148.735   CPU_WriteMem(4 bytes @ 0xE000EDF0)
T9CEC 000:149.461   CPU is running
T9CEC 000:149.507   CPU_WriteMem(4 bytes @ 0xE000EDFC)
T9CEC 000:151.863   Reset: Halt core after reset via DEMCR.VC_CORERESET.
T9CEC 000:154.237   Reset: Reset device via AIRCR.SYSRESETREQ.
T9CEC 000:154.253   CPU is running
T9CEC 000:154.261   CPU_WriteMem(4 bytes @ 0xE000ED0C)
T9CEC 000:208.507   CPU_ReadMem(4 bytes @ 0xE000EDF0)
T9CEC 000:208.951   CPU_ReadMem(4 bytes @ 0xE000EDF0)
T9CEC 000:211.176   CPU_WriteMem(4 bytes @ 0xE000EDFC)
T9CEC 000:216.942   CPU_ReadMem(4 bytes @ 0xE000EDF0)
T9CEC 000:219.280   CPU_WriteMem(4 bytes @ 0xE0002000)
T9CEC 000:219.700   CPU_ReadMem(4 bytes @ 0xE000EDFC)
T9CEC 000:220.024   CPU_ReadMem(4 bytes @ 0xE0001000)
T9CEC 000:220.404 - 72.151ms
T9CEC 000:220.482 JLINK_Halt()
T9CEC 000:220.494 - 0.011ms returns 0x00
T9CEC 000:220.509 JLINK_ReadMemU32(0xE000EDF0, 0x1 Items)
T9CEC 000:220.531   CPU_ReadMem(4 bytes @ 0xE000EDF0)
T9CEC 000:229.200   Data:  03 00 03 00
T9CEC 000:229.230   Debug reg: DHCSR
T9CEC 000:229.239 - 8.730ms returns 1 (0x1)
T9CEC 000:229.291 JLINK_WriteU32_64(0xE000EDF0, 0xA05F0003)
T9CEC 000:229.302   Debug reg: DHCSR
T9CEC 000:229.524   CPU_WriteMem(4 bytes @ 0xE000EDF0)
T9CEC 000:229.951 - 0.659ms returns 0 (0x00000000)
T9CEC 000:229.984 JLINK_WriteU32_64(0xE000EDFC, 0x01000000)
T9CEC 000:229.990   Debug reg: DEMCR
T9CEC 000:230.003   CPU_WriteMem(4 bytes @ 0xE000EDFC)
T9CEC 000:230.361 - 0.376ms returns 0 (0x00000000)
T9CEC 000:238.838 JLINK_GetHWStatus(...)
T9CEC 000:239.108 - 0.274ms returns 0
T9CEC 000:244.165 JLINK_GetNumBPUnits(Type = 0xFFFFFF00)
T9CEC 000:244.179 - 0.014ms returns 0x06
T9CEC 000:244.184 JLINK_GetNumBPUnits(Type = 0xF0)
T9CEC 000:244.188 - 0.003ms returns 0x2000
T9CEC 000:244.193 JLINK_GetNumWPUnits()
T9CEC 000:244.199 - 0.005ms returns 4
T9CEC 000:251.730 JLINK_GetSpeed()
T9CEC 000:251.744 - 0.014ms returns 10000
T9CEC 000:255.702 JLINK_ReadMemU32(0xE000E004, 0x1 Items)
T9CEC 000:255.725   CPU_ReadMem(4 bytes @ 0xE000E004)
T9CEC 000:256.074   Data:  02 00 00 00
T9CEC 000:256.082 - 0.379ms returns 1 (0x1)
T9CEC 000:256.100 JLINK_ReadMemU32(0xE000E004, 0x1 Items)
T9CEC 000:256.105   CPU_ReadMem(4 bytes @ 0xE000E004)
T9CEC 000:256.377   Data:  02 00 00 00
T9CEC 000:256.393 - 0.293ms returns 1 (0x1)
T9CEC 000:256.435 JLINK_WriteMemEx(0xE0001000, 0x0000001C Bytes, Flags = 0x02000004)
T9CEC 000:256.447   Data:  01 00 00 00 00 00 00 00 00 00 00 00 00 00 00 00 ...
T9CEC 000:256.471   CPU_WriteMem(28 bytes @ 0xE0001000)
T9CEC 000:256.893 - 0.457ms returns 0x1C
T9CEC 000:257.040 JLINK_Halt()
T9CEC 000:257.052 - 0.012ms returns 0x00
T9CEC 000:257.065 JLINK_IsHalted()
T9CEC 000:257.077 - 0.011ms returns TRUE
T9CEC 000:260.002 JLINK_WriteMem(0x20000000, 0x180 Bytes, ...)
T9CEC 000:260.013   Data:  00 BE 0A E0 0D 78 2D 06 68 40 08 24 40 00 00 D3 ...
T9CEC 000:260.185   CPU_WriteMem(384 bytes @ 0x20000000)
T9CEC 000:261.155 - 1.153ms returns 0x180
T9CEC 000:261.244 JLINK_HasError()
T9CEC 000:261.268 JLINK_WriteReg(R0, 0x08000000)
T9CEC 000:261.275 - 0.023ms returns 0
T9CEC 000:261.279 JLINK_WriteReg(R1, 0x0A037A00)
T9CEC 000:261.283 - 0.003ms returns 0
T9CEC 000:261.287 JLINK_WriteReg(R2, 0x00000001)
T9CEC 000:261.290 - 0.003ms returns 0
T9CEC 000:261.294 JLINK_WriteReg(R3, 0x00000000)
T9CEC 000:261.298 - 0.003ms returns 0
T9CEC 000:261.302 JLINK_WriteReg(R4, 0x00000000)
T9CEC 000:261.306 - 0.003ms returns 0
T9CEC 000:261.310 JLINK_WriteReg(R5, 0x00000000)
T9CEC 000:261.313 - 0.003ms returns 0
T9CEC 000:261.321 JLINK_WriteReg(R6, 0x00000000)
T9CEC 000:261.326 - 0.005ms returns 0
T9CEC 000:261.330 JLINK_WriteReg(R7, 0x00000000)
T9CEC 000:261.334 - 0.003ms returns 0
T9CEC 000:261.341 JLINK_WriteReg(R8, 0x00000000)
T9CEC 000:261.345 - 0.007ms returns 0
T9CEC 000:261.349 JLINK_WriteReg(R9, 0x2000017C)
T9CEC 000:261.353 - 0.003ms returns 0
T9CEC 000:261.357 JLINK_WriteReg(R10, 0x00000000)
T9CEC 000:261.360 - 0.003ms returns 0
T9CEC 000:261.365 JLINK_WriteReg(R11, 0x00000000)
T9CEC 000:261.368 - 0.003ms returns 0
T9CEC 000:261.372 JLINK_WriteReg(R12, 0x00000000)
T9CEC 000:261.376 - 0.003ms returns 0
T9CEC 000:261.380 JLINK_WriteReg(R13 (SP), 0x20001000)
T9CEC 000:261.385 - 0.004ms returns 0
T9CEC 000:261.389 JLINK_WriteReg(R14, 0x20000001)
T9CEC 000:261.392 - 0.003ms returns 0
T9CEC 000:261.400 JLINK_WriteReg(R15 (PC), 0x20000054)
T9CEC 000:261.404 - 0.007ms returns 0
T9CEC 000:261.408 JLINK_WriteReg(XPSR, 0x01000000)
T9CEC 000:261.412 - 0.003ms returns 0
T9CEC 000:261.416 JLINK_WriteReg(MSP, 0x20001000)
T9CEC 000:261.419 - 0.003ms returns 0
T9CEC 000:261.424 JLINK_WriteReg(PSP, 0x20001000)
T9CEC 000:261.427 - 0.003ms returns 0
T9CEC 000:261.432 JLINK_WriteReg(CFBP, 0x00000000)
T9CEC 000:261.435 - 0.003ms returns 0
T9CEC 000:261.440 JLINK_SetBPEx(Addr = 0x20000000, Type = 0xFFFFFFF2)
T9CEC 000:261.451   CPU_ReadMem(2 bytes @ 0x20000000)
T9CEC 000:261.783 - 0.342ms returns 0x00000001
T9CEC 000:261.837 JLINK_Go()
T9CEC 000:261.847   CPU_WriteMem(2 bytes @ 0x20000000)
T9CEC 000:262.266   CPU_ReadMem(4 bytes @ 0xE0001000)
T9CEC 000:262.635   CPU_WriteMem(4 bytes @ 0xE0002008)
T9CEC 000:262.655   CPU_WriteMem(4 bytes @ 0xE000200C)
T9CEC 000:262.661   CPU_WriteMem(4 bytes @ 0xE0002010)
T9CEC 000:262.666   CPU_WriteMem(4 bytes @ 0xE0002014)
T9CEC 000:262.671   CPU_WriteMem(4 bytes @ 0xE0002018)
T9CEC 000:262.676   CPU_WriteMem(4 bytes @ 0xE000201C)
T9CEC 000:263.873   CPU_WriteMem(4 bytes @ 0xE0001004)
T9CEC 000:268.467   Memory map 'after startup completion point' is active
T9CEC 000:268.483 - 6.646ms
T9CEC 000:268.523 JLINK_IsHalted()
T9CEC 000:270.183   CPU_ReadMem(2 bytes @ 0x20000000)
T9CEC 000:270.638 - 2.113ms returns TRUE
T9CEC 000:270.702 JLINK_ReadReg(R15 (PC))
T9CEC 000:270.718 - 0.016ms returns 0x20000000
T9CEC 000:270.732 JLINK_ClrBPEx(BPHandle = 0x00000001)
T9CEC 000:270.743 - 0.011ms returns 0x00
T9CEC 000:270.756 JLINK_ReadReg(R0)
T9CEC 000:270.767 - 0.010ms returns 0x00000000
T9CEC 000:271.326 JLINK_HasError()
T9CEC 000:271.336 JLINK_WriteReg(R0, 0x08000000)
T9CEC 000:271.341 - 0.005ms returns 0
T9CEC 000:271.345 JLINK_WriteReg(R1, 0x00004000)
T9CEC 000:271.349 - 0.003ms returns 0
T9CEC 000:271.353 JLINK_WriteReg(R2, 0x000000FF)
T9CEC 000:271.357 - 0.003ms returns 0
T9CEC 000:271.361 JLINK_WriteReg(R3, 0x00000000)
T9CEC 000:271.364 - 0.003ms returns 0
T9CEC 000:271.368 JLINK_WriteReg(R4, 0x00000000)
T9CEC 000:271.372 - 0.003ms returns 0
T9CEC 000:271.376 JLINK_WriteReg(R5, 0x00000000)
T9CEC 000:271.380 - 0.003ms returns 0
T9CEC 000:271.384 JLINK_WriteReg(R6, 0x00000000)
T9CEC 000:271.388 - 0.003ms returns 0
T9CEC 000:271.392 JLINK_WriteReg(R7, 0x00000000)
T9CEC 000:271.395 - 0.003ms returns 0
T9CEC 000:271.399 JLINK_WriteReg(R8, 0x00000000)
T9CEC 000:271.408 - 0.008ms returns 0
T9CEC 000:271.412 JLINK_WriteReg(R9, 0x2000017C)
T9CEC 000:271.416 - 0.003ms returns 0
T9CEC 000:271.420 JLINK_WriteReg(R10, 0x00000000)
T9CEC 000:271.423 - 0.003ms returns 0
T9CEC 000:271.427 JLINK_WriteReg(R11, 0x00000000)
T9CEC 000:271.431 - 0.003ms returns 0
T9CEC 000:271.435 JLINK_WriteReg(R12, 0x00000000)
T9CEC 000:271.438 - 0.003ms returns 0
T9CEC 000:271.442 JLINK_WriteReg(R13 (SP), 0x20001000)
T9CEC 000:271.446 - 0.004ms returns 0
T9CEC 000:271.450 JLINK_WriteReg(R14, 0x20000001)
T9CEC 000:271.454 - 0.003ms returns 0
T9CEC 000:271.458 JLINK_WriteReg(R15 (PC), 0x20000020)
T9CEC 000:271.462 - 0.003ms returns 0
T9CEC 000:271.466 JLINK_WriteReg(XPSR, 0x01000000)
T9CEC 000:271.469 - 0.003ms returns 0
T9CEC 000:271.474 JLINK_WriteReg(MSP, 0x20001000)
T9CEC 000:271.511 - 0.036ms returns 0
T9CEC 000:271.517 JLINK_WriteReg(PSP, 0x20001000)
T9CEC 000:271.521 - 0.003ms returns 0
T9CEC 000:271.525 JLINK_WriteReg(CFBP, 0x00000000)
T9CEC 000:271.528 - 0.003ms returns 0
T9CEC 000:271.533 JLINK_SetBPEx(Addr = 0x20000000, Type = 0xFFFFFFF2)
T9CEC 000:271.538 - 0.004ms returns 0x00000002
T9CEC 000:271.542 JLINK_Go()
T9CEC 000:271.552   CPU_ReadMem(4 bytes @ 0xE0001000)
T9CEC 000:273.820 - 2.277ms
T9CEC 000:273.846 JLINK_IsHalted()
T9CEC 000:274.151 - 0.305ms returns FALSE
T9CEC 000:274.172 JLINK_HasError()
T9CEC 000:285.474 JLINK_IsHalted()
T9CEC 000:285.920 - 0.445ms returns FALSE
T9CEC 000:285.936 JLINK_HasError()
T9CEC 000:286.977 JLINK_IsHalted()
T9CEC 000:287.426 - 0.448ms returns FALSE
T9CEC 000:287.442 JLINK_HasError()
T9CEC 000:289.573 JLINK_IsHalted()
T9CEC 000:291.626   CPU_ReadMem(2 bytes @ 0x20000000)
T9CEC 000:291.914 - 2.342ms returns TRUE
T9CEC 000:291.936 JLINK_ReadReg(R15 (PC))
T9CEC 000:291.942 - 0.006ms returns 0x20000000
T9CEC 000:291.946 JLINK_ClrBPEx(BPHandle = 0x00000002)
T9CEC 000:291.951 - 0.004ms returns 0x00
T9CEC 000:291.955 JLINK_ReadReg(R0)
T9CEC 000:291.959 - 0.003ms returns 0x00000000
T9CEC 000:292.335 JLINK_HasError()
T9CEC 000:292.344 JLINK_WriteReg(R0, 0x08004000)
T9CEC 000:292.349 - 0.005ms returns 0
T9CEC 000:292.354 JLINK_WriteReg(R1, 0x00004000)
T9CEC 000:292.357 - 0.003ms returns 0
T9CEC 000:292.361 JLINK_WriteReg(R2, 0x000000FF)
T9CEC 000:292.365 - 0.003ms returns 0
T9CEC 000:292.369 JLINK_WriteReg(R3, 0x00000000)
T9CEC 000:292.373 - 0.003ms returns 0
T9CEC 000:292.377 JLINK_WriteReg(R4, 0x00000000)
T9CEC 000:292.380 - 0.003ms returns 0
T9CEC 000:292.384 JLINK_WriteReg(R5, 0x00000000)
T9CEC 000:292.388 - 0.003ms returns 0
T9CEC 000:292.392 JLINK_WriteReg(R6, 0x00000000)
T9CEC 000:292.395 - 0.003ms returns 0
T9CEC 000:292.400 JLINK_WriteReg(R7, 0x00000000)
T9CEC 000:292.403 - 0.003ms returns 0
T9CEC 000:292.407 JLINK_WriteReg(R8, 0x00000000)
T9CEC 000:292.411 - 0.003ms returns 0
T9CEC 000:292.415 JLINK_WriteReg(R9, 0x2000017C)
T9CEC 000:292.419 - 0.003ms returns 0
T9CEC 000:292.423 JLINK_WriteReg(R10, 0x00000000)
T9CEC 000:292.426 - 0.003ms returns 0
T9CEC 000:292.431 JLINK_WriteReg(R11, 0x00000000)
T9CEC 000:292.434 - 0.003ms returns 0
T9CEC 000:292.438 JLINK_WriteReg(R12, 0x00000000)
T9CEC 000:292.442 - 0.003ms returns 0
T9CEC 000:292.446 JLINK_WriteReg(R13 (SP), 0x20001000)
T9CEC 000:292.450 - 0.004ms returns 0
T9CEC 000:292.454 JLINK_WriteReg(R14, 0x20000001)
T9CEC 000:292.458 - 0.003ms returns 0
T9CEC 000:292.462 JLINK_WriteReg(R15 (PC), 0x20000020)
T9CEC 000:292.465 - 0.003ms returns 0
T9CEC 000:292.469 JLINK_WriteReg(XPSR, 0x01000000)
T9CEC 000:292.473 - 0.003ms returns 0
T9CEC 000:292.477 JLINK_WriteReg(MSP, 0x20001000)
T9CEC 000:292.481 - 0.003ms returns 0
T9CEC 000:292.485 JLINK_WriteReg(PSP, 0x20001000)
T9CEC 000:292.488 - 0.003ms returns 0
T9CEC 000:292.493 JLINK_WriteReg(CFBP, 0x00000000)
T9CEC 000:292.496 - 0.003ms returns 0
T9CEC 000:292.501 JLINK_SetBPEx(Addr = 0x20000000, Type = 0xFFFFFFF2)
T9CEC 000:292.505 - 0.004ms returns 0x00000003
T9CEC 000:292.509 JLINK_Go()
T9CEC 000:292.519   CPU_ReadMem(4 bytes @ 0xE0001000)
T9CEC 000:294.845 - 2.335ms
T9CEC 000:294.892 JLINK_IsHalted()
T9CEC 000:295.245 - 0.352ms returns FALSE
T9CEC 000:295.287 JLINK_HasError()
T9CEC 000:298.162 JLINK_IsHalted()
T9CEC 000:298.692 - 0.529ms returns FALSE
T9CEC 000:298.740 JLINK_HasError()
T9CEC 000:300.869 JLINK_IsHalted()
T9CEC 000:301.457 - 0.586ms returns FALSE
T9CEC 000:301.495 JLINK_HasError()
T9CEC 000:304.291 JLINK_IsHalted()
T9CEC 000:304.753 - 0.462ms returns FALSE
T9CEC 000:304.771 JLINK_HasError()
T9CEC 000:306.274 JLINK_IsHalted()
T9CEC 000:307.240 - 0.964ms returns FALSE
T9CEC 000:307.394 JLINK_HasError()
T9CEC 000:308.758 JLINK_IsHalted()
T9CEC 000:316.912   CPU_ReadMem(2 bytes @ 0x20000000)
T9CEC 000:317.242 - 8.483ms returns TRUE
T9CEC 000:317.288 JLINK_ReadReg(R15 (PC))
T9CEC 000:317.294 - 0.006ms returns 0x20000000
T9CEC 000:317.304 JLINK_ClrBPEx(BPHandle = 0x00000003)
T9CEC 000:317.310 - 0.006ms returns 0x00
T9CEC 000:317.315 JLINK_ReadReg(R0)
T9CEC 000:317.318 - 0.003ms returns 0x00000000
T9CEC 000:317.686 JLINK_HasError()
T9CEC 000:317.694 JLINK_WriteReg(R0, 0x08008000)
T9CEC 000:317.699 - 0.005ms returns 0
T9CEC 000:317.704 JLINK_WriteReg(R1, 0x00004000)
T9CEC 000:317.707 - 0.003ms returns 0
T9CEC 000:317.712 JLINK_WriteReg(R2, 0x000000FF)
T9CEC 000:317.715 - 0.003ms returns 0
T9CEC 000:317.719 JLINK_WriteReg(R3, 0x00000000)
T9CEC 000:317.723 - 0.003ms returns 0
T9CEC 000:317.727 JLINK_WriteReg(R4, 0x00000000)
T9CEC 000:317.730 - 0.003ms returns 0
T9CEC 000:317.735 JLINK_WriteReg(R5, 0x00000000)
T9CEC 000:317.738 - 0.003ms returns 0
T9CEC 000:317.742 JLINK_WriteReg(R6, 0x00000000)
T9CEC 000:317.746 - 0.003ms returns 0
T9CEC 000:317.750 JLINK_WriteReg(R7, 0x00000000)
T9CEC 000:317.753 - 0.003ms returns 0
T9CEC 000:317.757 JLINK_WriteReg(R8, 0x00000000)
T9CEC 000:317.761 - 0.003ms returns 0
T9CEC 000:317.765 JLINK_WriteReg(R9, 0x2000017C)
T9CEC 000:317.769 - 0.003ms returns 0
T9CEC 000:317.773 JLINK_WriteReg(R10, 0x00000000)
T9CEC 000:317.776 - 0.003ms returns 0
T9CEC 000:317.780 JLINK_WriteReg(R11, 0x00000000)
T9CEC 000:317.784 - 0.003ms returns 0
T9CEC 000:317.788 JLINK_WriteReg(R12, 0x00000000)
T9CEC 000:317.792 - 0.003ms returns 0
T9CEC 000:317.796 JLINK_WriteReg(R13 (SP), 0x20001000)
T9CEC 000:317.800 - 0.004ms returns 0
T9CEC 000:317.804 JLINK_WriteReg(R14, 0x20000001)
T9CEC 000:317.808 - 0.003ms returns 0
T9CEC 000:317.812 JLINK_WriteReg(R15 (PC), 0x20000020)
T9CEC 000:317.816 - 0.003ms returns 0
T9CEC 000:317.820 JLINK_WriteReg(XPSR, 0x01000000)
T9CEC 000:317.823 - 0.003ms returns 0
T9CEC 000:317.828 JLINK_WriteReg(MSP, 0x20001000)
T9CEC 000:317.831 - 0.003ms returns 0
T9CEC 000:317.835 JLINK_WriteReg(PSP, 0x20001000)
T9CEC 000:317.839 - 0.003ms returns 0
T9CEC 000:317.843 JLINK_WriteReg(CFBP, 0x00000000)
T9CEC 000:317.846 - 0.003ms returns 0
T9CEC 000:317.851 JLINK_SetBPEx(Addr = 0x20000000, Type = 0xFFFFFFF2)
T9CEC 000:317.856 - 0.004ms returns 0x00000004
T9CEC 000:317.860 JLINK_Go()
T9CEC 000:317.869   CPU_ReadMem(4 bytes @ 0xE0001000)
T9CEC 000:320.086 - 2.225ms
T9CEC 000:320.113 JLINK_IsHalted()
T9CEC 000:320.376 - 0.262ms returns FALSE
T9CEC 000:320.391 JLINK_HasError()
T9CEC 000:324.702 JLINK_IsHalted()
T9CEC 000:325.081 - 0.378ms returns FALSE
T9CEC 000:325.114 JLINK_HasError()
T9CEC 000:327.461 JLINK_IsHalted()
T9CEC 000:327.776 - 0.314ms returns FALSE
T9CEC 000:327.822 JLINK_HasError()
T9CEC 000:330.568 JLINK_IsHalted()
T9CEC 000:331.426 - 0.856ms returns FALSE
T9CEC 000:331.547 JLINK_HasError()
T9CEC 000:333.919 JLINK_IsHalted()
T9CEC 000:335.906   CPU_ReadMem(2 bytes @ 0x20000000)
T9CEC 000:336.272 - 2.353ms returns TRUE
T9CEC 000:336.291 JLINK_ReadReg(R15 (PC))
T9CEC 000:336.297 - 0.006ms returns 0x20000000
T9CEC 000:336.301 JLINK_ClrBPEx(BPHandle = 0x00000004)
T9CEC 000:336.306 - 0.004ms returns 0x00
T9CEC 000:336.310 JLINK_ReadReg(R0)
T9CEC 000:336.314 - 0.003ms returns 0x00000000
T9CEC 000:336.678 JLINK_HasError()
T9CEC 000:336.687 JLINK_WriteReg(R0, 0x0800C000)
T9CEC 000:336.692 - 0.005ms returns 0
T9CEC 000:336.697 JLINK_WriteReg(R1, 0x00004000)
T9CEC 000:336.700 - 0.003ms returns 0
T9CEC 000:336.704 JLINK_WriteReg(R2, 0x000000FF)
T9CEC 000:336.708 - 0.003ms returns 0
T9CEC 000:336.712 JLINK_WriteReg(R3, 0x00000000)
T9CEC 000:336.715 - 0.003ms returns 0
T9CEC 000:336.720 JLINK_WriteReg(R4, 0x00000000)
T9CEC 000:336.723 - 0.003ms returns 0
T9CEC 000:336.727 JLINK_WriteReg(R5, 0x00000000)
T9CEC 000:336.731 - 0.003ms returns 0
T9CEC 000:336.735 JLINK_WriteReg(R6, 0x00000000)
T9CEC 000:336.739 - 0.003ms returns 0
T9CEC 000:336.743 JLINK_WriteReg(R7, 0x00000000)
T9CEC 000:336.746 - 0.003ms returns 0
T9CEC 000:336.750 JLINK_WriteReg(R8, 0x00000000)
T9CEC 000:336.754 - 0.003ms returns 0
T9CEC 000:336.758 JLINK_WriteReg(R9, 0x2000017C)
T9CEC 000:336.762 - 0.003ms returns 0
T9CEC 000:336.766 JLINK_WriteReg(R10, 0x00000000)
T9CEC 000:336.773 - 0.007ms returns 0
T9CEC 000:336.779 JLINK_WriteReg(R11, 0x00000000)
T9CEC 000:336.783 - 0.003ms returns 0
T9CEC 000:336.787 JLINK_WriteReg(R12, 0x00000000)
T9CEC 000:336.791 - 0.003ms returns 0
T9CEC 000:336.795 JLINK_WriteReg(R13 (SP), 0x20001000)
T9CEC 000:336.799 - 0.004ms returns 0
T9CEC 000:336.803 JLINK_WriteReg(R14, 0x20000001)
T9CEC 000:336.807 - 0.003ms returns 0
T9CEC 000:336.811 JLINK_WriteReg(R15 (PC), 0x20000020)
T9CEC 000:336.814 - 0.003ms returns 0
T9CEC 000:336.818 JLINK_WriteReg(XPSR, 0x01000000)
T9CEC 000:336.822 - 0.003ms returns 0
T9CEC 000:336.826 JLINK_WriteReg(MSP, 0x20001000)
T9CEC 000:336.830 - 0.003ms returns 0
T9CEC 000:336.834 JLINK_WriteReg(PSP, 0x20001000)
T9CEC 000:336.838 - 0.003ms returns 0
T9CEC 000:336.842 JLINK_WriteReg(CFBP, 0x00000000)
T9CEC 000:336.845 - 0.003ms returns 0
T9CEC 000:336.850 JLINK_SetBPEx(Addr = 0x20000000, Type = 0xFFFFFFF2)
T9CEC 000:336.854 - 0.004ms returns 0x00000005
T9CEC 000:336.859 JLINK_Go()
T9CEC 000:336.868   CPU_ReadMem(4 bytes @ 0xE0001000)
T9CEC 000:339.661 - 2.801ms
T9CEC 000:339.724 JLINK_IsHalted()
T9CEC 000:341.671   CPU_ReadMem(2 bytes @ 0x20000000)
T9CEC 000:342.000 - 2.275ms returns TRUE
T9CEC 000:342.044 JLINK_ReadReg(R15 (PC))
T9CEC 000:342.051 - 0.006ms returns 0x20000000
T9CEC 000:342.056 JLINK_ClrBPEx(BPHandle = 0x00000005)
T9CEC 000:342.060 - 0.004ms returns 0x00
T9CEC 000:342.065 JLINK_ReadReg(R0)
T9CEC 000:342.068 - 0.003ms returns 0x00000001
T9CEC 000:342.073 JLINK_HasError()
T9CEC 000:342.078 JLINK_WriteReg(R0, 0x0800C000)
T9CEC 000:342.082 - 0.004ms returns 0
T9CEC 000:342.086 JLINK_WriteReg(R1, 0x00004000)
T9CEC 000:342.090 - 0.003ms returns 0
T9CEC 000:342.094 JLINK_WriteReg(R2, 0x000000FF)
T9CEC 000:342.097 - 0.003ms returns 0
T9CEC 000:342.101 JLINK_WriteReg(R3, 0x00000000)
T9CEC 000:342.105 - 0.003ms returns 0
T9CEC 000:342.109 JLINK_WriteReg(R4, 0x00000000)
T9CEC 000:342.112 - 0.003ms returns 0
T9CEC 000:342.116 JLINK_WriteReg(R5, 0x00000000)
T9CEC 000:342.120 - 0.003ms returns 0
T9CEC 000:342.124 JLINK_WriteReg(R6, 0x00000000)
T9CEC 000:342.127 - 0.003ms returns 0
T9CEC 000:342.131 JLINK_WriteReg(R7, 0x00000000)
T9CEC 000:342.135 - 0.003ms returns 0
T9CEC 000:342.139 JLINK_WriteReg(R8, 0x00000000)
T9CEC 000:342.143 - 0.003ms returns 0
T9CEC 000:342.147 JLINK_WriteReg(R9, 0x2000017C)
T9CEC 000:342.150 - 0.003ms returns 0
T9CEC 000:342.154 JLINK_WriteReg(R10, 0x00000000)
T9CEC 000:342.158 - 0.003ms returns 0
T9CEC 000:342.162 JLINK_WriteReg(R11, 0x00000000)
T9CEC 000:342.165 - 0.003ms returns 0
T9CEC 000:342.169 JLINK_WriteReg(R12, 0x00000000)
T9CEC 000:342.173 - 0.003ms returns 0
T9CEC 000:342.177 JLINK_WriteReg(R13 (SP), 0x20001000)
T9CEC 000:342.181 - 0.003ms returns 0
T9CEC 000:342.185 JLINK_WriteReg(R14, 0x20000001)
T9CEC 000:342.188 - 0.003ms returns 0
T9CEC 000:342.192 JLINK_WriteReg(R15 (PC), 0x200000BC)
T9CEC 000:342.196 - 0.003ms returns 0
T9CEC 000:342.200 JLINK_WriteReg(XPSR, 0x01000000)
T9CEC 000:342.204 - 0.003ms returns 0
T9CEC 000:342.208 JLINK_WriteReg(MSP, 0x20001000)
T9CEC 000:342.211 - 0.003ms returns 0
T9CEC 000:342.215 JLINK_WriteReg(PSP, 0x20001000)
T9CEC 000:342.219 - 0.003ms returns 0
T9CEC 000:342.223 JLINK_WriteReg(CFBP, 0x00000000)
T9CEC 000:342.226 - 0.003ms returns 0
T9CEC 000:342.231 JLINK_SetBPEx(Addr = 0x20000000, Type = 0xFFFFFFF2)
T9CEC 000:342.235 - 0.004ms returns 0x00000006
T9CEC 000:342.239 JLINK_Go()
T9CEC 000:342.248   CPU_ReadMem(4 bytes @ 0xE0001000)
T9CEC 000:352.096 - 9.856ms
T9CEC 000:352.133 JLINK_IsHalted()
T9CEC 000:352.889 - 0.753ms returns FALSE
T9CEC 000:353.067 JLINK_HasError()
T9CEC 000:357.826 JLINK_IsHalted()
T9CEC 000:358.397 - 0.571ms returns FALSE
T9CEC 000:358.448 JLINK_HasError()
T9CEC 000:360.019 JLINK_IsHalted()
T9CEC 000:360.329 - 0.310ms returns FALSE
T9CEC 000:360.346 JLINK_HasError()
T9CEC 000:363.103 JLINK_IsHalted()
T9CEC 000:363.617 - 0.513ms returns FALSE
T9CEC 000:363.640 JLINK_HasError()
T9CEC 000:366.155 JLINK_IsHalted()
T9CEC 000:366.711 - 0.555ms returns FALSE
T9CEC 000:366.766 JLINK_HasError()
T9CEC 000:368.334 JLINK_IsHalted()
T9CEC 000:369.459 - 1.123ms returns FALSE
T9CEC 000:369.595 JLINK_HasError()
T9CEC 000:372.594 JLINK_IsHalted()
T9CEC 000:373.190 - 0.594ms returns FALSE
T9CEC 000:373.321 JLINK_HasError()
T9CEC 000:375.958 JLINK_IsHalted()
T9CEC 000:376.381 - 0.422ms returns FALSE
T9CEC 000:376.416 JLINK_HasError()
T9CEC 000:378.502 JLINK_IsHalted()
T9CEC 000:378.975 - 0.470ms returns FALSE
T9CEC 000:379.140 JLINK_HasError()
T9CEC 000:381.792 JLINK_IsHalted()
T9CEC 000:382.277 - 0.484ms returns FALSE
T9CEC 000:382.326 JLINK_HasError()
T9CEC 000:383.767 JLINK_IsHalted()
T9CEC 000:384.264 - 0.495ms returns FALSE
T9CEC 000:384.386 JLINK_HasError()
T9CEC 000:387.195 JLINK_IsHalted()
T9CEC 000:480.778   CPU_ReadMem(2 bytes @ 0x20000000)
T9CEC 000:481.152 - 93.957ms returns TRUE
T9CEC 000:481.219 JLINK_ReadReg(R15 (PC))
T9CEC 000:481.230 - 0.011ms returns 0x20000000
T9CEC 000:481.240 JLINK_ClrBPEx(BPHandle = 0x00000006)
T9CEC 000:481.246 - 0.005ms returns 0x00
T9CEC 000:481.253 JLINK_ReadReg(R0)
T9CEC 000:481.258 - 0.005ms returns 0x00000000
T9CEC 000:482.012 JLINK_HasError()
T9CEC 000:482.029 JLINK_WriteReg(R0, 0x08010000)
T9CEC 000:482.037 - 0.008ms returns 0
T9CEC 000:482.043 JLINK_WriteReg(R1, 0x00010000)
T9CEC 000:482.048 - 0.004ms returns 0
T9CEC 000:482.053 JLINK_WriteReg(R2, 0x000000FF)
T9CEC 000:482.058 - 0.005ms returns 0
T9CEC 000:482.064 JLINK_WriteReg(R3, 0x00000000)
T9CEC 000:482.069 - 0.005ms returns 0
T9CEC 000:482.074 JLINK_WriteReg(R4, 0x00000000)
T9CEC 000:482.079 - 0.004ms returns 0
T9CEC 000:482.085 JLINK_WriteReg(R5, 0x00000000)
T9CEC 000:482.089 - 0.004ms returns 0
T9CEC 000:482.095 JLINK_WriteReg(R6, 0x00000000)
T9CEC 000:482.099 - 0.004ms returns 0
T9CEC 000:482.105 JLINK_WriteReg(R7, 0x00000000)
T9CEC 000:482.110 - 0.004ms returns 0
T9CEC 000:482.115 JLINK_WriteReg(R8, 0x00000000)
T9CEC 000:482.120 - 0.004ms returns 0
T9CEC 000:482.125 JLINK_WriteReg(R9, 0x2000017C)
T9CEC 000:482.130 - 0.004ms returns 0
T9CEC 000:482.136 JLINK_WriteReg(R10, 0x00000000)
T9CEC 000:482.140 - 0.004ms returns 0
T9CEC 000:482.146 JLINK_WriteReg(R11, 0x00000000)
T9CEC 000:482.151 - 0.004ms returns 0
T9CEC 000:482.157 JLINK_WriteReg(R12, 0x00000000)
T9CEC 000:482.162 - 0.004ms returns 0
T9CEC 000:482.167 JLINK_WriteReg(R13 (SP), 0x20001000)
T9CEC 000:482.172 - 0.005ms returns 0
T9CEC 000:482.177 JLINK_WriteReg(R14, 0x20000001)
T9CEC 000:482.182 - 0.004ms returns 0
T9CEC 000:482.188 JLINK_WriteReg(R15 (PC), 0x20000020)
T9CEC 000:482.193 - 0.005ms returns 0
T9CEC 000:482.198 JLINK_WriteReg(XPSR, 0x01000000)
T9CEC 000:482.203 - 0.004ms returns 0
T9CEC 000:482.208 JLINK_WriteReg(MSP, 0x20001000)
T9CEC 000:482.213 - 0.004ms returns 0
T9CEC 000:482.218 JLINK_WriteReg(PSP, 0x20001000)
T9CEC 000:482.223 - 0.004ms returns 0
T9CEC 000:482.229 JLINK_WriteReg(CFBP, 0x00000000)
T9CEC 000:482.233 - 0.004ms returns 0
T9CEC 000:482.239 JLINK_SetBPEx(Addr = 0x20000000, Type = 0xFFFFFFF2)
T9CEC 000:482.246 - 0.006ms returns 0x00000007
T9CEC 000:482.251 JLINK_Go()
T9CEC 000:482.268   CPU_ReadMem(4 bytes @ 0xE0001000)
T9CEC 000:484.390 - 2.138ms
T9CEC 000:484.416 JLINK_IsHalted()
T9CEC 000:486.015   CPU_ReadMem(2 bytes @ 0x20000000)
T9CEC 000:486.305 - 1.889ms returns TRUE
T9CEC 000:486.324 JLINK_ReadReg(R15 (PC))
T9CEC 000:486.330 - 0.006ms returns 0x20000000
T9CEC 000:486.334 JLINK_ClrBPEx(BPHandle = 0x00000007)
T9CEC 000:486.339 - 0.004ms returns 0x00
T9CEC 000:486.343 JLINK_ReadReg(R0)
T9CEC 000:486.347 - 0.003ms returns 0x00000001
T9CEC 000:486.352 JLINK_HasError()
T9CEC 000:486.357 JLINK_WriteReg(R0, 0x08010000)
T9CEC 000:486.361 - 0.004ms returns 0
T9CEC 000:486.366 JLINK_WriteReg(R1, 0x00010000)
T9CEC 000:486.369 - 0.003ms returns 0
T9CEC 000:486.373 JLINK_WriteReg(R2, 0x000000FF)
T9CEC 000:486.377 - 0.003ms returns 0
T9CEC 000:486.381 JLINK_WriteReg(R3, 0x00000000)
T9CEC 000:486.385 - 0.003ms returns 0
T9CEC 000:486.389 JLINK_WriteReg(R4, 0x00000000)
T9CEC 000:486.392 - 0.003ms returns 0
T9CEC 000:486.432 JLINK_WriteReg(R5, 0x00000000)
T9CEC 000:486.438 - 0.006ms returns 0
T9CEC 000:486.442 JLINK_WriteReg(R6, 0x00000000)
T9CEC 000:486.446 - 0.003ms returns 0
T9CEC 000:486.450 JLINK_WriteReg(R7, 0x00000000)
T9CEC 000:486.453 - 0.003ms returns 0
T9CEC 000:486.458 JLINK_WriteReg(R8, 0x00000000)
T9CEC 000:486.461 - 0.003ms returns 0
T9CEC 000:486.465 JLINK_WriteReg(R9, 0x2000017C)
T9CEC 000:486.469 - 0.003ms returns 0
T9CEC 000:486.473 JLINK_WriteReg(R10, 0x00000000)
T9CEC 000:486.476 - 0.003ms returns 0
T9CEC 000:486.481 JLINK_WriteReg(R11, 0x00000000)
T9CEC 000:486.484 - 0.003ms returns 0
T9CEC 000:486.488 JLINK_WriteReg(R12, 0x00000000)
T9CEC 000:486.492 - 0.003ms returns 0
T9CEC 000:486.496 JLINK_WriteReg(R13 (SP), 0x20001000)
T9CEC 000:486.500 - 0.004ms returns 0
T9CEC 000:486.504 JLINK_WriteReg(R14, 0x20000001)
T9CEC 000:486.508 - 0.003ms returns 0
T9CEC 000:486.512 JLINK_WriteReg(R15 (PC), 0x200000BC)
T9CEC 000:486.516 - 0.003ms returns 0
T9CEC 000:486.520 JLINK_WriteReg(XPSR, 0x01000000)
T9CEC 000:486.523 - 0.003ms returns 0
T9CEC 000:486.527 JLINK_WriteReg(MSP, 0x20001000)
T9CEC 000:486.531 - 0.003ms returns 0
T9CEC 000:486.535 JLINK_WriteReg(PSP, 0x20001000)
T9CEC 000:486.539 - 0.003ms returns 0
T9CEC 000:486.543 JLINK_WriteReg(CFBP, 0x00000000)
T9CEC 000:486.547 - 0.003ms returns 0
T9CEC 000:486.551 JLINK_SetBPEx(Addr = 0x20000000, Type = 0xFFFFFFF2)
T9CEC 000:486.556 - 0.004ms returns 0x00000008
T9CEC 000:486.560 JLINK_Go()
T9CEC 000:486.569   CPU_ReadMem(4 bytes @ 0xE0001000)
T9CEC 000:488.786 - 2.225ms
T9CEC 000:488.817 JLINK_IsHalted()
T9CEC 000:489.066 - 0.248ms returns FALSE
T9CEC 000:489.114 JLINK_HasError()
T9CEC 000:495.622 JLINK_IsHalted()
T9CEC 000:496.078 - 0.455ms returns FALSE
T9CEC 000:496.130 JLINK_HasError()
T9CEC 000:498.012 JLINK_IsHalted()
T9CEC 000:498.542 - 0.529ms returns FALSE
T9CEC 000:498.592 JLINK_HasError()
T9CEC 000:499.988 JLINK_IsHalted()
T9CEC 000:500.475 - 0.487ms returns FALSE
T9CEC 000:500.492 JLINK_HasError()
T9CEC 000:502.384 JLINK_IsHalted()
T9CEC 000:502.666 - 0.281ms returns FALSE
T9CEC 000:502.682 JLINK_HasError()
T9CEC 000:504.394 JLINK_IsHalted()
T9CEC 000:504.871 - 0.476ms returns FALSE
T9CEC 000:504.884 JLINK_HasError()
T9CEC 000:507.841 JLINK_IsHalted()
T9CEC 000:508.568 - 0.726ms returns FALSE
T9CEC 000:508.700 JLINK_HasError()
T9CEC 000:513.874 JLINK_IsHalted()
T9CEC 000:514.242 - 0.367ms returns FALSE
T9CEC 000:514.293 JLINK_HasError()
T9CEC 000:516.950 JLINK_IsHalted()
T9CEC 000:517.275 - 0.324ms returns FALSE
T9CEC 000:517.293 JLINK_HasError()
T9CEC 000:518.974 JLINK_IsHalted()
T9CEC 000:519.345 - 0.371ms returns FALSE
T9CEC 000:519.379 JLINK_HasError()
T9CEC 000:521.977 JLINK_IsHalted()
T9CEC 000:522.551 - 0.573ms returns FALSE
T9CEC 000:522.601 JLINK_HasError()
T9CEC 000:524.449 JLINK_IsHalted()
T9CEC 000:524.875 - 0.426ms returns FALSE
T9CEC 000:524.925 JLINK_HasError()
T9CEC 000:527.909 JLINK_IsHalted()
T9CEC 000:528.240 - 0.330ms returns FALSE
T9CEC 000:528.260 JLINK_HasError()
T9CEC 000:530.475 JLINK_IsHalted()
T9CEC 000:530.990 - 0.513ms returns FALSE
T9CEC 000:531.119 JLINK_HasError()
T9CEC 000:532.480 JLINK_IsHalted()
T9CEC 000:532.935 - 0.455ms returns FALSE
T9CEC 000:532.993 JLINK_HasError()
T9CEC 000:535.719 JLINK_IsHalted()
T9CEC 000:536.285 - 0.565ms returns FALSE
T9CEC 000:536.334 JLINK_HasError()
T9CEC 000:537.696 JLINK_IsHalted()
T9CEC 000:537.979 - 0.282ms returns FALSE
T9CEC 000:537.994 JLINK_HasError()
T9CEC 000:539.979 JLINK_IsHalted()
T9CEC 000:540.287 - 0.308ms returns FALSE
T9CEC 000:540.303 JLINK_HasError()
T9CEC 000:542.106 JLINK_IsHalted()
T9CEC 000:542.422 - 0.316ms returns FALSE
T9CEC 000:542.436 JLINK_HasError()
T9CEC 000:544.241 JLINK_IsHalted()
T9CEC 000:544.720 - 0.479ms returns FALSE
T9CEC 000:544.770 JLINK_HasError()
T9CEC 000:546.981 JLINK_IsHalted()
T9CEC 000:547.278 - 0.297ms returns FALSE
T9CEC 000:547.302 JLINK_HasError()
T9CEC 000:548.346 JLINK_IsHalted()
T9CEC 000:548.749 - 0.403ms returns FALSE
T9CEC 000:548.811 JLINK_HasError()
T9CEC 000:550.957 JLINK_IsHalted()
T9CEC 000:551.577 - 0.619ms returns FALSE
T9CEC 000:551.644 JLINK_HasError()
T9CEC 000:554.322 JLINK_IsHalted()
T9CEC 000:555.760 - 1.437ms returns FALSE
T9CEC 000:555.812 JLINK_HasError()
T9CEC 000:557.879 JLINK_IsHalted()
T9CEC 000:558.378 - 0.498ms returns FALSE
T9CEC 000:558.426 JLINK_HasError()
T9CEC 000:560.104 JLINK_IsHalted()
T9CEC 000:560.403 - 0.299ms returns FALSE
T9CEC 000:560.420 JLINK_HasError()
T9CEC 000:562.124 JLINK_IsHalted()
T9CEC 000:562.539 - 0.414ms returns FALSE
T9CEC 000:562.584 JLINK_HasError()
T9CEC 000:564.117 JLINK_IsHalted()
T9CEC 000:564.481 - 0.364ms returns FALSE
T9CEC 000:564.523 JLINK_HasError()
T9CEC 000:566.115 JLINK_IsHalted()
T9CEC 000:566.580 - 0.464ms returns FALSE
T9CEC 000:566.622 JLINK_HasError()
T9CEC 000:567.693 JLINK_IsHalted()
T9CEC 000:568.001 - 0.307ms returns FALSE
T9CEC 000:568.046 JLINK_HasError()
T9CEC 000:570.142 JLINK_IsHalted()
T9CEC 000:571.098 - 0.956ms returns FALSE
T9CEC 000:571.158 JLINK_HasError()
T9CEC 000:573.274 JLINK_IsHalted()
T9CEC 000:573.704 - 0.430ms returns FALSE
T9CEC 000:573.749 JLINK_HasError()
T9CEC 000:576.306 JLINK_IsHalted()
T9CEC 000:576.690 - 0.383ms returns FALSE
T9CEC 000:576.758 JLINK_HasError()
T9CEC 000:578.345 JLINK_IsHalted()
T9CEC 000:578.662 - 0.317ms returns FALSE
T9CEC 000:578.714 JLINK_HasError()
T9CEC 000:579.876 JLINK_IsHalted()
T9CEC 000:580.155 - 0.278ms returns FALSE
T9CEC 000:580.204 JLINK_HasError()
T9CEC 000:582.350 JLINK_IsHalted()
T9CEC 000:582.939 - 0.589ms returns FALSE
T9CEC 000:582.989 JLINK_HasError()
T9CEC 000:584.578 JLINK_IsHalted()
T9CEC 000:585.099 - 0.519ms returns FALSE
T9CEC 000:585.245 JLINK_HasError()
T9CEC 000:588.917 JLINK_IsHalted()
T9CEC 000:632.840   CPU_ReadMem(2 bytes @ 0x20000000)
T9CEC 000:634.175 - 45.257ms returns TRUE
T9CEC 000:634.238 JLINK_ReadReg(R15 (PC))
T9CEC 000:634.250 - 0.011ms returns 0x20000000
T9CEC 000:634.268 JLINK_ClrBPEx(BPHandle = 0x00000008)
T9CEC 000:634.282 - 0.014ms returns 0x00
T9CEC 000:634.288 JLINK_ReadReg(R0)
T9CEC 000:634.294 - 0.006ms returns 0x00000000
T9CEC 000:635.921 JLINK_HasError()
T9CEC 000:635.937 JLINK_WriteReg(R0, 0x00000001)
T9CEC 000:635.944 - 0.006ms returns 0
T9CEC 000:635.948 JLINK_WriteReg(R1, 0x00010000)
T9CEC 000:635.952 - 0.003ms returns 0
T9CEC 000:635.956 JLINK_WriteReg(R2, 0x000000FF)
T9CEC 000:635.960 - 0.003ms returns 0
T9CEC 000:635.964 JLINK_WriteReg(R3, 0x00000000)
T9CEC 000:635.968 - 0.003ms returns 0
T9CEC 000:635.972 JLINK_WriteReg(R4, 0x00000000)
T9CEC 000:635.975 - 0.003ms returns 0
T9CEC 000:635.979 JLINK_WriteReg(R5, 0x00000000)
T9CEC 000:635.983 - 0.003ms returns 0
T9CEC 000:635.987 JLINK_WriteReg(R6, 0x00000000)
T9CEC 000:635.990 - 0.003ms returns 0
T9CEC 000:635.994 JLINK_WriteReg(R7, 0x00000000)
T9CEC 000:635.998 - 0.003ms returns 0
T9CEC 000:636.002 JLINK_WriteReg(R8, 0x00000000)
T9CEC 000:636.006 - 0.003ms returns 0
T9CEC 000:636.010 JLINK_WriteReg(R9, 0x2000017C)
T9CEC 000:636.013 - 0.003ms returns 0
T9CEC 000:636.017 JLINK_WriteReg(R10, 0x00000000)
T9CEC 000:636.021 - 0.003ms returns 0
T9CEC 000:636.025 JLINK_WriteReg(R11, 0x00000000)
T9CEC 000:636.028 - 0.003ms returns 0
T9CEC 000:636.032 JLINK_WriteReg(R12, 0x00000000)
T9CEC 000:636.036 - 0.003ms returns 0
T9CEC 000:636.040 JLINK_WriteReg(R13 (SP), 0x20001000)
T9CEC 000:636.044 - 0.004ms returns 0
T9CEC 000:636.048 JLINK_WriteReg(R14, 0x20000001)
T9CEC 000:636.052 - 0.003ms returns 0
T9CEC 000:636.056 JLINK_WriteReg(R15 (PC), 0x20000082)
T9CEC 000:636.060 - 0.003ms returns 0
T9CEC 000:636.064 JLINK_WriteReg(XPSR, 0x01000000)
T9CEC 000:636.068 - 0.003ms returns 0
T9CEC 000:636.072 JLINK_WriteReg(MSP, 0x20001000)
T9CEC 000:636.075 - 0.003ms returns 0
T9CEC 000:636.079 JLINK_WriteReg(PSP, 0x20001000)
T9CEC 000:636.083 - 0.003ms returns 0
T9CEC 000:636.087 JLINK_WriteReg(CFBP, 0x00000000)
T9CEC 000:636.090 - 0.003ms returns 0
T9CEC 000:636.095 JLINK_SetBPEx(Addr = 0x20000000, Type = 0xFFFFFFF2)
T9CEC 000:636.100 - 0.005ms returns 0x00000009
T9CEC 000:636.109 JLINK_Go()
T9CEC 000:636.123   CPU_ReadMem(4 bytes @ 0xE0001000)
T9CEC 000:638.416 - 2.306ms
T9CEC 000:638.444 JLINK_IsHalted()
T9CEC 000:640.072   CPU_ReadMem(2 bytes @ 0x20000000)
T9CEC 000:640.320 - 1.876ms returns TRUE
T9CEC 000:640.337 JLINK_ReadReg(R15 (PC))
T9CEC 000:640.343 - 0.005ms returns 0x20000000
T9CEC 000:640.348 JLINK_ClrBPEx(BPHandle = 0x00000009)
T9CEC 000:640.352 - 0.004ms returns 0x00
T9CEC 000:640.356 JLINK_ReadReg(R0)
T9CEC 000:640.360 - 0.003ms returns 0x00000000
T9CEC 000:697.912 JLINK_WriteMem(0x20000000, 0x180 Bytes, ...)
T9CEC 000:697.925   Data:  00 BE 0A E0 0D 78 2D 06 68 40 08 24 40 00 00 D3 ...
T9CEC 000:697.946   CPU_WriteMem(384 bytes @ 0x20000000)
T9CEC 000:705.177 - 7.265ms returns 0x180
T9CEC 000:705.256 JLINK_HasError()
T9CEC 000:705.264 JLINK_WriteReg(R0, 0x08000000)
T9CEC 000:705.271 - 0.006ms returns 0
T9CEC 000:705.276 JLINK_WriteReg(R1, 0x0A037A00)
T9CEC 000:705.282 - 0.005ms returns 0
T9CEC 000:705.286 JLINK_WriteReg(R2, 0x00000002)
T9CEC 000:705.290 - 0.003ms returns 0
T9CEC 000:705.294 JLINK_WriteReg(R3, 0x00000000)
T9CEC 000:705.298 - 0.003ms returns 0
T9CEC 000:705.302 JLINK_WriteReg(R4, 0x00000000)
T9CEC 000:705.306 - 0.003ms returns 0
T9CEC 000:705.310 JLINK_WriteReg(R5, 0x00000000)
T9CEC 000:705.314 - 0.003ms returns 0
T9CEC 000:705.318 JLINK_WriteReg(R6, 0x00000000)
T9CEC 000:705.321 - 0.003ms returns 0
T9CEC 000:705.325 JLINK_WriteReg(R7, 0x00000000)
T9CEC 000:705.329 - 0.003ms returns 0
T9CEC 000:705.333 JLINK_WriteReg(R8, 0x00000000)
T9CEC 000:705.336 - 0.003ms returns 0
T9CEC 000:705.340 JLINK_WriteReg(R9, 0x2000017C)
T9CEC 000:705.344 - 0.003ms returns 0
T9CEC 000:705.348 JLINK_WriteReg(R10, 0x00000000)
T9CEC 000:705.351 - 0.003ms returns 0
T9CEC 000:705.355 JLINK_WriteReg(R11, 0x00000000)
T9CEC 000:705.359 - 0.003ms returns 0
T9CEC 000:705.363 JLINK_WriteReg(R12, 0x00000000)
T9CEC 000:705.366 - 0.003ms returns 0
T9CEC 000:705.371 JLINK_WriteReg(R13 (SP), 0x20001000)
T9CEC 000:705.375 - 0.004ms returns 0
T9CEC 000:705.379 JLINK_WriteReg(R14, 0x20000001)
T9CEC 000:705.383 - 0.003ms returns 0
T9CEC 000:705.387 JLINK_WriteReg(R15 (PC), 0x20000054)
T9CEC 000:705.390 - 0.003ms returns 0
T9CEC 000:705.394 JLINK_WriteReg(XPSR, 0x01000000)
T9CEC 000:705.398 - 0.003ms returns 0
T9CEC 000:705.402 JLINK_WriteReg(MSP, 0x20001000)
T9CEC 000:705.406 - 0.003ms returns 0
T9CEC 000:705.410 JLINK_WriteReg(PSP, 0x20001000)
T9CEC 000:705.413 - 0.003ms returns 0
T9CEC 000:705.417 JLINK_WriteReg(CFBP, 0x00000000)
T9CEC 000:705.421 - 0.003ms returns 0
T9CEC 000:705.425 JLINK_SetBPEx(Addr = 0x20000000, Type = 0xFFFFFFF2)
T9CEC 000:705.435   CPU_ReadMem(2 bytes @ 0x20000000)
T9CEC 000:705.873 - 0.447ms returns 0x0000000A
T9CEC 000:705.888 JLINK_Go()
T9CEC 000:705.895   CPU_WriteMem(2 bytes @ 0x20000000)
T9CEC 000:706.237   CPU_ReadMem(4 bytes @ 0xE0001000)
T9CEC 000:708.567 - 2.677ms
T9CEC 000:708.593 JLINK_IsHalted()
T9CEC 000:710.312   CPU_ReadMem(2 bytes @ 0x20000000)
T9CEC 000:710.627 - 2.034ms returns TRUE
T9CEC 000:710.643 JLINK_ReadReg(R15 (PC))
T9CEC 000:710.648 - 0.005ms returns 0x20000000
T9CEC 000:710.653 JLINK_ClrBPEx(BPHandle = 0x0000000A)
T9CEC 000:710.657 - 0.004ms returns 0x00
T9CEC 000:710.661 JLINK_ReadReg(R0)
T9CEC 000:710.665 - 0.003ms returns 0x00000000
T9CEC 000:710.953 JLINK_WriteMem(0x20000180, 0x280 Bytes, ...)
T9CEC 000:710.991   Data:  F0 74 01 20 41 03 00 08 35 6E 00 08 F7 22 00 08 ...
T9CEC 000:711.028   CPU_WriteMem(640 bytes @ 0x20000180)
T9CEC 000:712.483 - 1.531ms returns 0x280
T9CEC 000:712.538 JLINK_WriteMem(0x20000400, 0x180 Bytes, ...)
T9CEC 000:712.542   Data:  F2 FF 03 BC 07 F0 78 FD 2A 4B 19 68 08 68 B0 E8 ...
T9CEC 000:712.554   CPU_WriteMem(384 bytes @ 0x20000400)
T9CEC 000:713.481 - 0.943ms returns 0x180
T9CEC 000:713.502 JLINK_HasError()
T9CEC 000:713.510 JLINK_WriteReg(R0, 0x08000000)
T9CEC 000:713.515 - 0.005ms returns 0
T9CEC 000:713.519 JLINK_WriteReg(R1, 0x00000400)
T9CEC 000:713.523 - 0.003ms returns 0
T9CEC 000:713.527 JLINK_WriteReg(R2, 0x20000180)
T9CEC 000:713.536 - 0.009ms returns 0
T9CEC 000:713.541 JLINK_WriteReg(R3, 0x00000000)
T9CEC 000:713.544 - 0.003ms returns 0
T9CEC 000:713.548 JLINK_WriteReg(R4, 0x00000000)
T9CEC 000:713.552 - 0.003ms returns 0
T9CEC 000:713.556 JLINK_WriteReg(R5, 0x00000000)
T9CEC 000:713.560 - 0.003ms returns 0
T9CEC 000:713.564 JLINK_WriteReg(R6, 0x00000000)
T9CEC 000:713.567 - 0.003ms returns 0
T9CEC 000:713.571 JLINK_WriteReg(R7, 0x00000000)
T9CEC 000:713.575 - 0.003ms returns 0
T9CEC 000:713.579 JLINK_WriteReg(R8, 0x00000000)
T9CEC 000:713.583 - 0.003ms returns 0
T9CEC 000:713.587 JLINK_WriteReg(R9, 0x2000017C)
T9CEC 000:713.595 - 0.008ms returns 0
T9CEC 000:713.600 JLINK_WriteReg(R10, 0x00000000)
T9CEC 000:713.603 - 0.003ms returns 0
T9CEC 000:713.607 JLINK_WriteReg(R11, 0x00000000)
T9CEC 000:713.611 - 0.003ms returns 0
T9CEC 000:713.615 JLINK_WriteReg(R12, 0x00000000)
T9CEC 000:713.619 - 0.003ms returns 0
T9CEC 000:713.623 JLINK_WriteReg(R13 (SP), 0x20001000)
T9CEC 000:713.627 - 0.004ms returns 0
T9CEC 000:713.631 JLINK_WriteReg(R14, 0x20000001)
T9CEC 000:713.635 - 0.003ms returns 0
T9CEC 000:713.639 JLINK_WriteReg(R15 (PC), 0x20000108)
T9CEC 000:713.642 - 0.003ms returns 0
T9CEC 000:713.647 JLINK_WriteReg(XPSR, 0x01000000)
T9CEC 000:713.650 - 0.003ms returns 0
T9CEC 000:713.654 JLINK_WriteReg(MSP, 0x20001000)
T9CEC 000:713.658 - 0.003ms returns 0
T9CEC 000:713.662 JLINK_WriteReg(PSP, 0x20001000)
T9CEC 000:713.666 - 0.003ms returns 0
T9CEC 000:713.670 JLINK_WriteReg(CFBP, 0x00000000)
T9CEC 000:713.673 - 0.003ms returns 0
T9CEC 000:713.678 JLINK_SetBPEx(Addr = 0x20000000, Type = 0xFFFFFFF2)
T9CEC 000:713.683 - 0.004ms returns 0x0000000B
T9CEC 000:713.687 JLINK_Go()
T9CEC 000:713.695   CPU_ReadMem(4 bytes @ 0xE0001000)
T9CEC 000:716.031 - 2.342ms
T9CEC 000:716.099 JLINK_IsHalted()
T9CEC 000:716.367 - 0.266ms returns FALSE
T9CEC 000:716.502 JLINK_HasError()
T9CEC 000:719.183 JLINK_IsHalted()
T9CEC 000:719.776 - 0.593ms returns FALSE
T9CEC 000:719.826 JLINK_HasError()
T9CEC 000:722.208 JLINK_IsHalted()
T9CEC 000:722.639 - 0.430ms returns FALSE
T9CEC 000:722.683 JLINK_HasError()
T9CEC 000:724.202 JLINK_IsHalted()
T9CEC 000:724.596 - 0.393ms returns FALSE
T9CEC 000:724.638 JLINK_HasError()
T9CEC 000:726.573 JLINK_IsHalted()
T9CEC 000:734.672 - 8.098ms returns FALSE
T9CEC 000:734.729 JLINK_HasError()
T9CEC 000:737.527 JLINK_IsHalted()
T9CEC 000:739.432   CPU_ReadMem(2 bytes @ 0x20000000)
T9CEC 000:739.793 - 2.266ms returns TRUE
T9CEC 000:739.828 JLINK_ReadReg(R15 (PC))
T9CEC 000:739.835 - 0.007ms returns 0x20000000
T9CEC 000:739.841 JLINK_ClrBPEx(BPHandle = 0x0000000B)
T9CEC 000:739.846 - 0.005ms returns 0x00
T9CEC 000:739.854 JLINK_ReadReg(R0)
T9CEC 000:739.859 - 0.004ms returns 0x00000000
T9CEC 000:740.275 JLINK_WriteMem(0x20000180, 0x280 Bytes, ...)
T9CEC 000:740.284   Data:  01 23 05 E0 5B 1C 93 42 02 D2 E0 5C 00 28 F9 D1 ...
T9CEC 000:740.296   CPU_WriteMem(640 bytes @ 0x20000180)
T9CEC 000:741.668 - 1.393ms returns 0x280
T9CEC 000:741.717 JLINK_WriteMem(0x20000400, 0x180 Bytes, ...)
T9CEC 000:741.722   Data:  06 F1 04 09 4D E7 28 46 52 E7 20 6A BD E8 F0 9F ...
T9CEC 000:741.733   CPU_WriteMem(384 bytes @ 0x20000400)
T9CEC 000:742.865 - 1.147ms returns 0x180
T9CEC 000:742.919 JLINK_HasError()
T9CEC 000:742.926 JLINK_WriteReg(R0, 0x08000400)
T9CEC 000:742.933 - 0.007ms returns 0
T9CEC 000:742.938 JLINK_WriteReg(R1, 0x00000400)
T9CEC 000:742.943 - 0.004ms returns 0
T9CEC 000:742.948 JLINK_WriteReg(R2, 0x20000180)
T9CEC 000:742.952 - 0.004ms returns 0
T9CEC 000:742.958 JLINK_WriteReg(R3, 0x00000000)
T9CEC 000:742.963 - 0.004ms returns 0
T9CEC 000:742.968 JLINK_WriteReg(R4, 0x00000000)
T9CEC 000:742.973 - 0.004ms returns 0
T9CEC 000:742.978 JLINK_WriteReg(R5, 0x00000000)
T9CEC 000:742.983 - 0.005ms returns 0
T9CEC 000:742.988 JLINK_WriteReg(R6, 0x00000000)
T9CEC 000:742.993 - 0.004ms returns 0
T9CEC 000:742.999 JLINK_WriteReg(R7, 0x00000000)
T9CEC 000:743.004 - 0.004ms returns 0
T9CEC 000:743.009 JLINK_WriteReg(R8, 0x00000000)
T9CEC 000:743.020 - 0.010ms returns 0
T9CEC 000:743.040 JLINK_WriteReg(R9, 0x2000017C)
T9CEC 000:743.052 - 0.011ms returns 0
T9CEC 000:743.057 JLINK_WriteReg(R10, 0x00000000)
T9CEC 000:743.062 - 0.005ms returns 0
T9CEC 000:743.068 JLINK_WriteReg(R11, 0x00000000)
T9CEC 000:743.072 - 0.004ms returns 0
T9CEC 000:743.077 JLINK_WriteReg(R12, 0x00000000)
T9CEC 000:743.082 - 0.004ms returns 0
T9CEC 000:743.087 JLINK_WriteReg(R13 (SP), 0x20001000)
T9CEC 000:743.092 - 0.005ms returns 0
T9CEC 000:743.097 JLINK_WriteReg(R14, 0x20000001)
T9CEC 000:743.101 - 0.004ms returns 0
T9CEC 000:743.107 JLINK_WriteReg(R15 (PC), 0x20000108)
T9CEC 000:743.111 - 0.004ms returns 0
T9CEC 000:743.116 JLINK_WriteReg(XPSR, 0x01000000)
T9CEC 000:743.121 - 0.004ms returns 0
T9CEC 000:743.126 JLINK_WriteReg(MSP, 0x20001000)
T9CEC 000:743.131 - 0.004ms returns 0
T9CEC 000:743.136 JLINK_WriteReg(PSP, 0x20001000)
T9CEC 000:743.141 - 0.005ms returns 0
T9CEC 000:743.147 JLINK_WriteReg(CFBP, 0x00000000)
T9CEC 000:743.152 - 0.004ms returns 0
T9CEC 000:743.157 JLINK_SetBPEx(Addr = 0x20000000, Type = 0xFFFFFFF2)
T9CEC 000:743.163 - 0.005ms returns 0x0000000C
T9CEC 000:743.168 JLINK_Go()
T9CEC 000:743.181   CPU_ReadMem(4 bytes @ 0xE0001000)
T9CEC 000:745.580 - 2.410ms
T9CEC 000:745.607 JLINK_IsHalted()
T9CEC 000:745.849 - 0.241ms returns FALSE
T9CEC 000:745.867 JLINK_HasError()
T9CEC 000:748.038 JLINK_IsHalted()
T9CEC 000:748.438 - 0.400ms returns FALSE
T9CEC 000:748.490 JLINK_HasError()
T9CEC 000:750.022 JLINK_IsHalted()
T9CEC 000:750.325 - 0.303ms returns FALSE
T9CEC 000:750.343 JLINK_HasError()
T9CEC 000:752.470 JLINK_IsHalted()
T9CEC 000:752.902 - 0.432ms returns FALSE
T9CEC 000:753.026 JLINK_HasError()
T9CEC 000:755.052 JLINK_IsHalted()
T9CEC 000:755.555 - 0.503ms returns FALSE
T9CEC 000:755.602 JLINK_HasError()
T9CEC 000:757.385 JLINK_IsHalted()
T9CEC 000:757.846 - 0.458ms returns FALSE
